
T1968 000:075 SEGGER J-Link V4.50j Log File (0000ms, 0075ms total)
T1968 000:075 DLL Compiled: Jun 26 2012 09:19:07 (0000ms, 0075ms total)
T1968 000:075 Logging started @ 2015-03-09 09:32 (0000ms, 0075ms total)
T1968 000:075 JLINK_SetWarnOutHandler(...) (0000ms, 0075ms total)
T1968 000:075 JLINK_OpenEx(...)
Firmware: J-Link ARM V8 compiled Nov 14 2012 22:34:52
Hardware: V8.00
S/N: 270676280
Feature(s): RDI,FlashDL,FlashBP,JFlash,GDBFULL  returns O.K. (0043ms, 0118ms total)
T1968 000:118 JLINK_SetErrorOutHandler(...) (0000ms, 0118ms total)
T1968 000:118 JLINK_ExecCommand("Device = STM32F407VE", ...)
                JLINK_ExecCommand("map ram 0x20000000 - 0x2001FFFF", ...)  returns 0x00 (0000ms, 0000ms total)
                JLINK_AddMirrorAreaEx(Addr = 0x00000000, Size = 0x00000000) (0000ms, 0000ms total)
              Device "STM32F407VE" selected (512 KB flash, 128 KB RAM).  returns 0x00 (0003ms, 0121ms total)
T1968 000:121 JLINK_ExecCommand("ProjectFile = "F:\开发板\STM32F407开发板（增强型）V1.0\例程\UCOS版\UDP服务器收发数据实验（ucos版）\project\JLinkSettings.ini"", ...)  returns 0x00 (0001ms, 0122ms total)
T1968 000:125 JLINK_ExecCommand("DisableConnectionTimeout", ...)  returns 0x00 (0000ms, 0122ms total)
T1968 000:125 JLINK_TIF_Select(JLINKARM_TIF_JTAG)  returns 0x00 (0000ms, 0122ms total)
T1968 000:125 JLINK_SetSpeed(2000) (0000ms, 0122ms total)
T1968 000:125 JLINK_GetHardwareVersion()  returns 0x13880 (0000ms, 0122ms total)
T1968 000:125 JLINK_GetDLLVersion()  returns 45010 (0000ms, 0122ms total)
T1968 000:125 JLINK_GetFirmwareString(...) (0000ms, 0122ms total)
T1968 000:134 JLINK_GetDLLVersion()  returns 45010 (0001ms, 0123ms total)
T1968 000:135 JLINK_GetCompileDateTime() (0000ms, 0123ms total)
T1968 000:136 JLINK_GetFirmwareString(...) (0000ms, 0123ms total)
T1968 000:138 JLINK_GetHardwareVersion()  returns 0x13880 (0000ms, 0123ms total)
T1968 000:146 JLINK_GetIdData(...) >0x2F8 JTAG>TotalIRLen = 9, IRPrint = 0x0011 >0x30 JTAG> >0x210 JTAG> >0x40 JTAG> >0x40 JTAG> >0x40 JTAG> >0x30 JTAG> >0x40 JTAG> >0x40 JTAG> >0x40 JTAG> >0x40 JTAG> >0x40 JTAG> >0x40 JTAG> >0x40 JTAG> >0x40 JTAG> >0x40 JTAG> >0x40 JTAG> >0x40 JTAG> >0x2F8 JTAG>TotalIRLen = 9, IRPrint = 0x0011 >0x30 JTAG> >0x210 JTAG> >0x80 JTAG> >0x40 JTAG> >0x40 JTAG> >0x50 JTAG> >0x40 JTAG> >0x40 JTAG> >0x40 JTAG> >0x50 JTAG> >0x40 JTAG> >0x50 JTAG> >0x40 JTAG> >0x40 JTAG>
 >0x40 JTAG> >0x40 JTAG> >0x30 JTAG> >0x40 JTAG> >0x50 JTAG> >0x40 JTAG> >0x38 JTAG> >0x80 JTAG> >0x40 JTAG> >0x40 JTAG> >0x50 JTAG> >0x40 JTAG> >0x40 JTAG> >0x40 JTAG> >0x50 JTAG> >0x40 JTAG> >0x40 JTAG> >0x30 JTAG> >0x40 JTAG> >0x40 JTAG> >0x40 JTAG> >0x40 JTAG> >0x40 JTAG> >0x50 JTAG> >0x40 JTAG> >0x80 JTAG> >0x40 JTAG> >0x30 JTAG> >0x40 JTAG> >0x40 JTAG> >0x40 JTAG> >0x40 JTAG> >0x40 JTAG> >0x50 JTAG> >0x40 JTAG> >0x80 JTAG> >0x40 JTAG> >0x30 JTAG> >0x40 JTAG> >0x50 JTAG> >0x40 JTAG> >0x40 JTAG>
 >0x40 JTAG> >0x30 JTAG> >0x40 JTAG> >0x50 JTAG> >0x40 JTAG>Found Cortex-M4 r0p1, Little endian. >0x50 JTAG> >0x50 JTAG> >0x40 JTAG> >0x40 JTAG> >0x30 JTAG> >0x30 JTAG> >0x50 JTAG> >0x40 JTAG> >0x80 JTAG> >0x40 JTAG> >0x30 JTAG> >0x40 JTAG> >0x50 JTAG> >0x40 JTAG> >0x40 JTAG> >0x40 JTAG> >0x30 JTAG> >0x40 JTAG> >0x50 JTAG> >0x40 JTAG>TPIU fitted. >0x40 JTAG> >0x40 JTAG> >0x30 JTAG> >0x40 JTAG> >0x50 JTAG> >0x40 JTAG>ETM fitted. >0x40 JTAG> >0x40 JTAG> >0x30 JTAG> >0x40 JTAG> >0x50 JTAG> >0x40 JTAG>
 >0x40 JTAG> >0x40 JTAG> >0x30 JTAG> >0x40 JTAG> >0x50 JTAG> >0x40 JTAG>FPUnit: 6 code (BP) slots and 2 literal slots >0x40 JTAG> >0x40 JTAG> >0x30 JTAG> >0x40 JTAG> >0x50 JTAG> >0x40 JTAG> >0x40 JTAG> >0x40 JTAG> >0x30 JTAG> >0x40 JTAG> >0x50 JTAG> >0x40 JTAG> ScanLen=9 NumDevices=2 aId[0]=0x4BA00477 aIrRead[0]=0 aScanLen[0]=0 aScanRead[0]=0 (0146ms, 0269ms total)
T1968 000:292 JLINK_JTAG_GetDeviceID(DeviceIndex = 0)  returns 0x4BA00477 (0000ms, 0269ms total)
T1968 000:292 JLINK_JTAG_GetDeviceInfo(DeviceIndex = 0)  returns 0x00 (0000ms, 0269ms total)
T1968 000:292 JLINK_JTAG_GetDeviceID(DeviceIndex = 1)  returns 0x6413041 (0000ms, 0269ms total)
T1968 000:292 JLINK_JTAG_GetDeviceInfo(DeviceIndex = 1)  returns 0x00 (0000ms, 0269ms total)
T1968 000:292 JLINK_GetDebugInfo(0x100) -- Value=0xE00FF003  returns 0x00 (0000ms, 0269ms total)
T1968 000:294 JLINK_ReadMem (0xE00FFFF0, 0x0010 Bytes, ...) -- CPU is running -- CPU_ReadMem(16 bytes @ 0xE00FFFF0) -- Data:  0D 00 00 00 10 00 00 00 05 00 00 00 B1 00 00 00  returns 0x00 (0004ms, 0273ms total)
T1968 000:298 JLINK_ReadMem (0xE00FFFD0, 0x0020 Bytes, ...) -- CPU is running -- CPU_ReadMem(32 bytes @ 0xE00FFFD0) -- Data:  00 00 00 00 00 00 00 00 00 00 00 00 00 00 00 00 ...  returns 0x00 (0001ms, 0274ms total)
T1968 000:299 JLINK_ReadMem (0xE00FF000, 0x0018 Bytes, ...) -- CPU is running -- CPU_ReadMem(24 bytes @ 0xE00FF000) -- Data:  03 F0 F0 FF 03 20 F0 FF 03 30 F0 FF 03 10 F0 FF ...  returns 0x00 (0001ms, 0275ms total)
T1968 000:300 JLINK_ReadMemU32(0xE000ED00, 0x0001 Items, ...) -- CPU is running -- CPU_ReadMem(4 bytes @ 0xE000ED00) -- Data:  41 C2 0F 41  returns 0x01 (0001ms, 0276ms total)
T1968 000:301 JLINK_ReadMemU32(0xE000EF40, 0x0001 Items, ...) -- CPU is running -- CPU_ReadMem(4 bytes @ 0xE000EF40) -- Data:  21 00 11 10  returns 0x01 (0001ms, 0277ms total)
T1968 000:302 JLINK_ReadMemU32(0xE000EF44, 0x0001 Items, ...) -- CPU is running -- CPU_ReadMem(4 bytes @ 0xE000EF44) -- Data:  11 00 00 11  returns 0x01 (0001ms, 0278ms total)
T1968 000:303 JLINK_SetResetType(JLINKARM_RESET_TYPE_NORMAL)  returns JLINKARM_RESET_TYPE_NORMAL (0000ms, 0278ms total)
T1968 000:303 JLINK_Reset() >0x48 JTAG> >0x80 JTAG> >0x40 JTAG> >0x40 JTAG> >0x50 JTAG> >0x40 JTAG> >0x40 JTAG> >0x40 JTAG> >0x50 JTAG> >0x40 JTAG> >0x40 JTAG> >0x30 JTAG> >0x40 JTAG> >0x40 JTAG> >0x40 JTAG> >0x40 JTAG> >0x40 JTAG> >0x50 JTAG> >0x40 JTAG> >0x80 JTAG> >0x40 JTAG> >0x30 JTAG> >0x40 JTAG> >0x40 JTAG> >0x40 JTAG> >0x40 JTAG> >0x40 JTAG> >0x50 JTAG> >0x40 JTAG> >0x80 JTAG> >0x40 JTAG> >0x30 JTAG> >0x40 JTAG> >0x50 JTAG> >0x40 JTAG> >0x40 JTAG> >0x40 JTAG> >0x30 JTAG> >0x40 JTAG> >0x50 JTAG>
 >0x40 JTAG>Found Cortex-M4 r0p1, Little endian. >0x50 JTAG> >0x50 JTAG> >0x40 JTAG> >0x40 JTAG> >0x30 JTAG> >0x30 JTAG> >0x50 JTAG> >0x40 JTAG> >0x80 JTAG> >0x40 JTAG> >0x30 JTAG> >0x40 JTAG> >0x50 JTAG> >0x40 JTAG> >0x40 JTAG> >0x40 JTAG> >0x30 JTAG> >0x40 JTAG> >0x50 JTAG> >0x40 JTAG>TPIU fitted. >0x40 JTAG> >0x40 JTAG> >0x30 JTAG> >0x40 JTAG> >0x50 JTAG> >0x40 JTAG>ETM fitted. >0x40 JTAG> >0x40 JTAG> >0x30 JTAG> >0x40 JTAG> >0x50 JTAG> >0x40 JTAG> >0x40 JTAG> >0x40 JTAG> >0x30 JTAG> >0x40 JTAG>
 >0x50 JTAG> >0x40 JTAG>FPUnit: 6 code (BP) slots and 2 literal slots >0x40 JTAG> >0x40 JTAG> >0x30 JTAG> >0x40 JTAG> >0x50 JTAG> >0x40 JTAG> >0x40 JTAG> >0x40 JTAG> >0x30 JTAG> >0x40 JTAG> >0x50 JTAG> >0x40 JTAG> -- CPU is running -- CPU_WriteMem(4 bytes @ 0xE000EDF0) -- CPU is running -- CPU_WriteMem(4 bytes @ 0xE000EDFC) -- CPU is running -- CPU_WriteMem(4 bytes @ 0xE000ED0C) -- CPU is running -- CPU_ReadMem(4 bytes @ 0xE000EDF0) -- CPU is running -- CPU_ReadMem(4 bytes @ 0xE000EDF0) -- CPU is running
 -- CPU_WriteMem(4 bytes @ 0xE000EDF0) -- CPU is running -- CPU_WriteMem(4 bytes @ 0xE000EDFC) -- CPU is running -- CPU_ReadMem(4 bytes @ 0xE000EDF0) >0x90 JTAG> >0x40 JTAG> >0x30 JTAG> >0x40 JTAG> >0x50 JTAG> >0x40 JTAG> -- CPU_WriteMem(4 bytes @ 0xE000EDFC) -- CPU_WriteMem(4 bytes @ 0xE0001028) -- CPU_WriteMem(4 bytes @ 0xE0001038) -- CPU_WriteMem(4 bytes @ 0xE0001048) -- CPU_WriteMem(4 bytes @ 0xE0001058) -- CPU_WriteMem(4 bytes @ 0xE0002000) (0142ms, 0420ms total)
T1968 000:445 JLINK_Halt()  returns 0x00 (0000ms, 0420ms total)
T1968 000:445 JLINK_IsHalted()  returns TRUE (0000ms, 0420ms total)
T1968 000:445 JLINK_ReadMemU32(0xE000EDF0, 0x0001 Items, ...) -- CPU_ReadMem(4 bytes @ 0xE000EDF0) -- Data:  03 00 03 00  returns 0x01 (0001ms, 0421ms total)
T1968 000:446 JLINK_WriteU32(0xE000EDF0, 0xA05F0003) -- CPU_WriteMem(4 bytes @ 0xE000EDF0)  returns 0x00 (0001ms, 0422ms total)
T1968 000:447 JLINK_WriteU32(0xE000EDFC, 0x01000000) -- CPU_WriteMem(4 bytes @ 0xE000EDFC)  returns 0x00 (0001ms, 0423ms total)
T1968 000:453 JLINK_GetHWStatus(...)  returns 0x00 (0001ms, 0424ms total)
T1968 000:461 JLINK_GetNumBPUnits(Type = 0xFFFFFF00)  returns 0x06 (0000ms, 0424ms total)
T1968 000:461 JLINK_GetNumBPUnits(Type = 0xF0)  returns 0x2000 (0000ms, 0424ms total)
T1968 000:461 JLINK_GetNumWPUnits()  returns 0x04 (0000ms, 0424ms total)
T1968 000:465 JLINK_GetSpeed()  returns 0x7D0 (0000ms, 0424ms total)
T1968 000:467 JLINK_ReadMemU32(0xE000E004, 0x0001 Items, ...) -- CPU_ReadMem(4 bytes @ 0xE000E004) -- Data:  02 00 00 00  returns 0x01 (0002ms, 0426ms total)
T1968 000:469 JLINK_ReadMemU32(0xE000E004, 0x0001 Items, ...) -- CPU_ReadMem(4 bytes @ 0xE000E004) -- Data:  02 00 00 00  returns 0x01 (0001ms, 0427ms total)
T1968 000:470 JLINK_WriteMem(0xE0001000, 0x001C Bytes, ...) -- Data:  01 00 00 00 00 00 00 00 00 00 00 00 00 00 00 00 ... -- CPU_WriteMem(28 bytes @ 0xE0001000)  returns 0x1C (0001ms, 0428ms total)
T1968 000:471 JLINK_ReadMem (0xE0001000, 0x001C Bytes, ...) -- CPU_ReadMem(28 bytes @ 0xE0001000) -- Data:  01 00 00 40 00 00 00 00 00 00 00 00 00 00 00 00 ...  returns 0x00 (0001ms, 0429ms total)
T1968 000:472 JLINK_Halt()  returns 0x00 (0000ms, 0429ms total)
T1968 000:472 JLINK_IsHalted()  returns TRUE (0000ms, 0429ms total)
T1968 000:473 JLINK_WriteMem(0x20000000, 0x0180 Bytes, ...) -- Data:  00 BE 0A E0 0D 78 2D 06 68 40 08 24 40 00 00 D3 ... -- CPU_WriteMem(384 bytes @ 0x20000000)  returns 0x180 (0003ms, 0432ms total)
T1968 000:476 JLINK_WriteReg(R0, 0x08000000)  returns 0x00 (0000ms, 0432ms total)
T1968 000:476 JLINK_WriteReg(R1, 0x017D7840)  returns 0x00 (0000ms, 0432ms total)
T1968 000:476 JLINK_WriteReg(R2, 0x00000001)  returns 0x00 (0000ms, 0432ms total)
T1968 000:476 JLINK_WriteReg(R3, 0x00000000)  returns 0x00 (0000ms, 0432ms total)
T1968 000:476 JLINK_WriteReg(R4, 0x00000000)  returns 0x00 (0000ms, 0432ms total)
T1968 000:476 JLINK_WriteReg(R5, 0x00000000)  returns 0x00 (0000ms, 0432ms total)
T1968 000:476 JLINK_WriteReg(R6, 0x00000000)  returns 0x00 (0000ms, 0432ms total)
T1968 000:476 JLINK_WriteReg(R7, 0x00000000)  returns 0x00 (0000ms, 0432ms total)
T1968 000:476 JLINK_WriteReg(R8, 0x00000000)  returns 0x00 (0000ms, 0432ms total)
T1968 000:476 JLINK_WriteReg(R9, 0x2000017C)  returns 0x00 (0000ms, 0432ms total)
T1968 000:476 JLINK_WriteReg(R10, 0x00000000)  returns 0x00 (0000ms, 0432ms total)
T1968 000:476 JLINK_WriteReg(R11, 0x00000000)  returns 0x00 (0000ms, 0432ms total)
T1968 000:476 JLINK_WriteReg(R12, 0x00000000)  returns 0x00 (0000ms, 0432ms total)
T1968 000:476 JLINK_WriteReg(R13, 0x20000800)  returns 0x00 (0000ms, 0432ms total)
T1968 000:476 JLINK_WriteReg(R14, 0x20000001)  returns 0x00 (0000ms, 0432ms total)
T1968 000:476 JLINK_WriteReg(R15, 0x20000054)  returns 0x00 (0000ms, 0432ms total)
T1968 000:476 JLINK_WriteReg(XPSR, 0x01000000)  returns 0x00 (0000ms, 0432ms total)
T1968 000:476 JLINK_WriteReg(MSP, 0x20000800)  returns 0x00 (0000ms, 0432ms total)
T1968 000:476 JLINK_WriteReg(PSP, 0x20000800)  returns 0x00 (0000ms, 0432ms total)
T1968 000:476 JLINK_WriteReg(CFBP, 0x00000000)  returns 0x00 (0000ms, 0432ms total)
T1968 000:476 JLINK_SetBPEx(Addr = 0x20000000, Type = 0xFFFFFFF2) -- CPU_ReadMem(2 bytes @ 0x20000000)  returns 0x00000001 (0001ms, 0433ms total)
T1968 000:477 JLINK_Go() -- CPU_WriteMem(2 bytes @ 0x20000000) -- CPU_WriteMem(4 bytes @ 0xE0002008) -- CPU_WriteMem(4 bytes @ 0xE000200C) -- CPU_WriteMem(4 bytes @ 0xE0002010) -- CPU_WriteMem(4 bytes @ 0xE0002014) -- CPU_WriteMem(4 bytes @ 0xE0002018) -- CPU_WriteMem(4 bytes @ 0xE000201C) (0010ms, 0443ms total)
T1968 000:487 JLINK_IsHalted() -- CPU_ReadMem(2 bytes @ 0x20000000)  returns TRUE (0006ms, 0449ms total)
T1968 000:493 JLINK_ReadReg(R15)  returns 0x20000000 (0000ms, 0443ms total)
T1968 000:493 JLINK_ClrBPEx(BPHandle = 0x00000001)  returns 0x00 (0000ms, 0443ms total)
T1968 000:493 JLINK_ReadReg(R0)  returns 0x00000000 (0000ms, 0443ms total)
T1968 000:493 JLINK_WriteReg(R0, 0x08000000)  returns 0x00 (0000ms, 0443ms total)
T1968 000:493 JLINK_WriteReg(R1, 0x00004000)  returns 0x00 (0000ms, 0443ms total)
T1968 000:493 JLINK_WriteReg(R2, 0x000000FF)  returns 0x00 (0000ms, 0443ms total)
T1968 000:493 JLINK_WriteReg(R3, 0x00000000)  returns 0x00 (0000ms, 0443ms total)
T1968 000:493 JLINK_WriteReg(R4, 0x00000000)  returns 0x00 (0000ms, 0443ms total)
T1968 000:493 JLINK_WriteReg(R5, 0x00000000)  returns 0x00 (0000ms, 0443ms total)
T1968 000:493 JLINK_WriteReg(R6, 0x00000000)  returns 0x00 (0000ms, 0443ms total)
T1968 000:493 JLINK_WriteReg(R7, 0x00000000)  returns 0x00 (0000ms, 0443ms total)
T1968 000:493 JLINK_WriteReg(R8, 0x00000000)  returns 0x00 (0000ms, 0443ms total)
T1968 000:493 JLINK_WriteReg(R9, 0x2000017C)  returns 0x00 (0000ms, 0443ms total)
T1968 000:493 JLINK_WriteReg(R10, 0x00000000)  returns 0x00 (0000ms, 0443ms total)
T1968 000:494 JLINK_WriteReg(R11, 0x00000000)  returns 0x00 (0000ms, 0443ms total)
T1968 000:494 JLINK_WriteReg(R12, 0x00000000)  returns 0x00 (0000ms, 0443ms total)
T1968 000:494 JLINK_WriteReg(R13, 0x20000800)  returns 0x00 (0000ms, 0443ms total)
T1968 000:494 JLINK_WriteReg(R14, 0x20000001)  returns 0x00 (0000ms, 0443ms total)
T1968 000:494 JLINK_WriteReg(R15, 0x20000020)  returns 0x00 (0000ms, 0443ms total)
T1968 000:494 JLINK_WriteReg(XPSR, 0x01000000)  returns 0x00 (0000ms, 0443ms total)
T1968 000:494 JLINK_WriteReg(MSP, 0x20000800)  returns 0x00 (0000ms, 0443ms total)
T1968 000:494 JLINK_WriteReg(PSP, 0x20000800)  returns 0x00 (0000ms, 0443ms total)
T1968 000:494 JLINK_WriteReg(CFBP, 0x00000000)  returns 0x00 (0000ms, 0443ms total)
T1968 000:494 JLINK_SetBPEx(Addr = 0x20000000, Type = 0xFFFFFFF2)  returns 0x00000002 (0000ms, 0443ms total)
T1968 000:494 JLINK_Go() -- CPU_WriteMem(4 bytes @ 0xE0002008) -- CPU_WriteMem(4 bytes @ 0xE000200C) -- CPU_WriteMem(4 bytes @ 0xE0002010) -- CPU_WriteMem(4 bytes @ 0xE0002014) -- CPU_WriteMem(4 bytes @ 0xE0002018) -- CPU_WriteMem(4 bytes @ 0xE000201C) (0008ms, 0451ms total)
T1968 000:502 JLINK_IsHalted() -- CPU_ReadMem(2 bytes @ 0x20000000)  returns TRUE (0006ms, 0457ms total)
T1968 000:508 JLINK_ReadReg(R15)  returns 0x20000000 (0000ms, 0451ms total)
T1968 000:508 JLINK_ClrBPEx(BPHandle = 0x00000002)  returns 0x00 (0000ms, 0451ms total)
T1968 000:508 JLINK_ReadReg(R0)  returns 0x00000001 (0000ms, 0451ms total)
T1968 000:508 JLINK_WriteReg(R0, 0x08000000)  returns 0x00 (0000ms, 0451ms total)
T1968 000:508 JLINK_WriteReg(R1, 0x00004000)  returns 0x00 (0000ms, 0451ms total)
T1968 000:508 JLINK_WriteReg(R2, 0x000000FF)  returns 0x00 (0000ms, 0451ms total)
T1968 000:508 JLINK_WriteReg(R3, 0x00000000)  returns 0x00 (0000ms, 0451ms total)
T1968 000:508 JLINK_WriteReg(R4, 0x00000000)  returns 0x00 (0000ms, 0451ms total)
T1968 000:508 JLINK_WriteReg(R5, 0x00000000)  returns 0x00 (0000ms, 0451ms total)
T1968 000:508 JLINK_WriteReg(R6, 0x00000000)  returns 0x00 (0000ms, 0451ms total)
T1968 000:508 JLINK_WriteReg(R7, 0x00000000)  returns 0x00 (0000ms, 0451ms total)
T1968 000:508 JLINK_WriteReg(R8, 0x00000000)  returns 0x00 (0000ms, 0451ms total)
T1968 000:508 JLINK_WriteReg(R9, 0x2000017C)  returns 0x00 (0000ms, 0451ms total)
T1968 000:508 JLINK_WriteReg(R10, 0x00000000)  returns 0x00 (0000ms, 0451ms total)
T1968 000:508 JLINK_WriteReg(R11, 0x00000000)  returns 0x00 (0000ms, 0451ms total)
T1968 000:508 JLINK_WriteReg(R12, 0x00000000)  returns 0x00 (0000ms, 0451ms total)
T1968 000:508 JLINK_WriteReg(R13, 0x20000800)  returns 0x00 (0000ms, 0451ms total)
T1968 000:508 JLINK_WriteReg(R14, 0x20000001)  returns 0x00 (0000ms, 0451ms total)
T1968 000:508 JLINK_WriteReg(R15, 0x200000BC)  returns 0x00 (0000ms, 0451ms total)
T1968 000:508 JLINK_WriteReg(XPSR, 0x01000000)  returns 0x00 (0000ms, 0451ms total)
T1968 000:508 JLINK_WriteReg(MSP, 0x20000800)  returns 0x00 (0000ms, 0451ms total)
T1968 000:508 JLINK_WriteReg(PSP, 0x20000800)  returns 0x00 (0000ms, 0451ms total)
T1968 000:508 JLINK_WriteReg(CFBP, 0x00000000)  returns 0x00 (0000ms, 0451ms total)
T1968 000:508 JLINK_SetBPEx(Addr = 0x20000000, Type = 0xFFFFFFF2)  returns 0x00000003 (0000ms, 0451ms total)
T1968 000:508 JLINK_Go() -- CPU_WriteMem(4 bytes @ 0xE0002008) -- CPU_WriteMem(4 bytes @ 0xE000200C) -- CPU_WriteMem(4 bytes @ 0xE0002010) -- CPU_WriteMem(4 bytes @ 0xE0002014) -- CPU_WriteMem(4 bytes @ 0xE0002018) -- CPU_WriteMem(4 bytes @ 0xE000201C) (0008ms, 0459ms total)
T1968 000:516 JLINK_IsHalted()  returns FALSE (0001ms, 0460ms total)
T1968 000:567 JLINK_IsHalted()  returns FALSE (0001ms, 0460ms total)
T1968 000:618 JLINK_IsHalted()  returns FALSE (0001ms, 0460ms total)
T1968 000:669 JLINK_IsHalted()  returns FALSE (0001ms, 0460ms total)
T1968 000:720 JLINK_IsHalted()  returns FALSE (0001ms, 0460ms total)
T1968 000:771 JLINK_IsHalted()  returns FALSE (0001ms, 0460ms total)
T1968 000:822 JLINK_IsHalted()  returns FALSE (0001ms, 0460ms total)
T1968 000:873 JLINK_IsHalted() -- CPU_ReadMem(2 bytes @ 0x20000000)  returns TRUE (0006ms, 0465ms total)
T1968 000:879 JLINK_ReadReg(R15)  returns 0x20000000 (0000ms, 0459ms total)
T1968 000:879 JLINK_ClrBPEx(BPHandle = 0x00000003)  returns 0x00 (0000ms, 0459ms total)
T1968 000:879 JLINK_ReadReg(R0)  returns 0x00000000 (0000ms, 0459ms total)
T1968 000:879 JLINK_WriteReg(R0, 0x08004000)  returns 0x00 (0000ms, 0459ms total)
T1968 000:879 JLINK_WriteReg(R1, 0x00004000)  returns 0x00 (0000ms, 0459ms total)
T1968 000:879 JLINK_WriteReg(R2, 0x000000FF)  returns 0x00 (0000ms, 0459ms total)
T1968 000:879 JLINK_WriteReg(R3, 0x00000000)  returns 0x00 (0000ms, 0459ms total)
T1968 000:879 JLINK_WriteReg(R4, 0x00000000)  returns 0x00 (0000ms, 0459ms total)
T1968 000:879 JLINK_WriteReg(R5, 0x00000000)  returns 0x00 (0000ms, 0459ms total)
T1968 000:879 JLINK_WriteReg(R6, 0x00000000)  returns 0x00 (0000ms, 0459ms total)
T1968 000:879 JLINK_WriteReg(R7, 0x00000000)  returns 0x00 (0000ms, 0459ms total)
T1968 000:879 JLINK_WriteReg(R8, 0x00000000)  returns 0x00 (0000ms, 0459ms total)
T1968 000:879 JLINK_WriteReg(R9, 0x2000017C)  returns 0x00 (0000ms, 0459ms total)
T1968 000:879 JLINK_WriteReg(R10, 0x00000000)  returns 0x00 (0000ms, 0459ms total)
T1968 000:879 JLINK_WriteReg(R11, 0x00000000)  returns 0x00 (0000ms, 0459ms total)
T1968 000:879 JLINK_WriteReg(R12, 0x00000000)  returns 0x00 (0000ms, 0459ms total)
T1968 000:879 JLINK_WriteReg(R13, 0x20000800)  returns 0x00 (0000ms, 0459ms total)
T1968 000:879 JLINK_WriteReg(R14, 0x20000001)  returns 0x00 (0000ms, 0459ms total)
T1968 000:879 JLINK_WriteReg(R15, 0x20000020)  returns 0x00 (0000ms, 0459ms total)
T1968 000:879 JLINK_WriteReg(XPSR, 0x01000000)  returns 0x00 (0000ms, 0459ms total)
T1968 000:879 JLINK_WriteReg(MSP, 0x20000800)  returns 0x00 (0000ms, 0459ms total)
T1968 000:879 JLINK_WriteReg(PSP, 0x20000800)  returns 0x00 (0000ms, 0459ms total)
T1968 000:879 JLINK_WriteReg(CFBP, 0x00000000)  returns 0x00 (0000ms, 0459ms total)
T1968 000:879 JLINK_SetBPEx(Addr = 0x20000000, Type = 0xFFFFFFF2)  returns 0x00000004 (0000ms, 0459ms total)
T1968 000:879 JLINK_Go() -- CPU_WriteMem(4 bytes @ 0xE0002008) -- CPU_WriteMem(4 bytes @ 0xE000200C) -- CPU_WriteMem(4 bytes @ 0xE0002010) -- CPU_WriteMem(4 bytes @ 0xE0002014) -- CPU_WriteMem(4 bytes @ 0xE0002018) -- CPU_WriteMem(4 bytes @ 0xE000201C) (0010ms, 0469ms total)
T1968 000:889 JLINK_IsHalted() -- CPU_ReadMem(2 bytes @ 0x20000000)  returns TRUE (0006ms, 0475ms total)
T1968 000:895 JLINK_ReadReg(R15)  returns 0x20000000 (0000ms, 0469ms total)
T1968 000:895 JLINK_ClrBPEx(BPHandle = 0x00000004)  returns 0x00 (0000ms, 0469ms total)
T1968 000:895 JLINK_ReadReg(R0)  returns 0x00000001 (0000ms, 0469ms total)
T1968 000:895 JLINK_WriteReg(R0, 0x08004000)  returns 0x00 (0000ms, 0469ms total)
T1968 000:895 JLINK_WriteReg(R1, 0x00004000)  returns 0x00 (0000ms, 0469ms total)
T1968 000:895 JLINK_WriteReg(R2, 0x000000FF)  returns 0x00 (0000ms, 0469ms total)
T1968 000:895 JLINK_WriteReg(R3, 0x00000000)  returns 0x00 (0000ms, 0469ms total)
T1968 000:895 JLINK_WriteReg(R4, 0x00000000)  returns 0x00 (0000ms, 0469ms total)
T1968 000:895 JLINK_WriteReg(R5, 0x00000000)  returns 0x00 (0000ms, 0469ms total)
T1968 000:895 JLINK_WriteReg(R6, 0x00000000)  returns 0x00 (0000ms, 0469ms total)
T1968 000:895 JLINK_WriteReg(R7, 0x00000000)  returns 0x00 (0000ms, 0469ms total)
T1968 000:895 JLINK_WriteReg(R8, 0x00000000)  returns 0x00 (0000ms, 0469ms total)
T1968 000:895 JLINK_WriteReg(R9, 0x2000017C)  returns 0x00 (0000ms, 0469ms total)
T1968 000:895 JLINK_WriteReg(R10, 0x00000000)  returns 0x00 (0000ms, 0469ms total)
T1968 000:895 JLINK_WriteReg(R11, 0x00000000)  returns 0x00 (0000ms, 0469ms total)
T1968 000:895 JLINK_WriteReg(R12, 0x00000000)  returns 0x00 (0000ms, 0469ms total)
T1968 000:895 JLINK_WriteReg(R13, 0x20000800)  returns 0x00 (0000ms, 0469ms total)
T1968 000:895 JLINK_WriteReg(R14, 0x20000001)  returns 0x00 (0000ms, 0469ms total)
T1968 000:895 JLINK_WriteReg(R15, 0x200000BC)  returns 0x00 (0000ms, 0469ms total)
T1968 000:895 JLINK_WriteReg(XPSR, 0x01000000)  returns 0x00 (0000ms, 0469ms total)
T1968 000:895 JLINK_WriteReg(MSP, 0x20000800)  returns 0x00 (0000ms, 0469ms total)
T1968 000:895 JLINK_WriteReg(PSP, 0x20000800)  returns 0x00 (0000ms, 0469ms total)
T1968 000:895 JLINK_WriteReg(CFBP, 0x00000000)  returns 0x00 (0000ms, 0469ms total)
T1968 000:895 JLINK_SetBPEx(Addr = 0x20000000, Type = 0xFFFFFFF2)  returns 0x00000005 (0000ms, 0469ms total)
T1968 000:895 JLINK_Go() -- CPU_WriteMem(4 bytes @ 0xE0002008) -- CPU_WriteMem(4 bytes @ 0xE000200C) -- CPU_WriteMem(4 bytes @ 0xE0002010) -- CPU_WriteMem(4 bytes @ 0xE0002014) -- CPU_WriteMem(4 bytes @ 0xE0002018) -- CPU_WriteMem(4 bytes @ 0xE000201C) (0008ms, 0477ms total)
T1968 000:903 JLINK_IsHalted()  returns FALSE (0001ms, 0478ms total)
T1968 000:954 JLINK_IsHalted()  returns FALSE (0001ms, 0478ms total)
T1968 001:005 JLINK_IsHalted()  returns FALSE (0002ms, 0479ms total)
T1968 001:057 JLINK_IsHalted()  returns FALSE (0001ms, 0478ms total)
T1968 001:108 JLINK_IsHalted()  returns FALSE (0001ms, 0478ms total)
T1968 001:159 JLINK_IsHalted()  returns FALSE (0001ms, 0478ms total)
T1968 001:210 JLINK_IsHalted()  returns FALSE (0001ms, 0478ms total)
T1968 001:261 JLINK_IsHalted() -- CPU_ReadMem(2 bytes @ 0x20000000)  returns TRUE (0006ms, 0483ms total)
T1968 001:267 JLINK_ReadReg(R15)  returns 0x20000000 (0000ms, 0477ms total)
T1968 001:267 JLINK_ClrBPEx(BPHandle = 0x00000005)  returns 0x00 (0000ms, 0477ms total)
T1968 001:267 JLINK_ReadReg(R0)  returns 0x00000000 (0000ms, 0477ms total)
T1968 001:267 JLINK_WriteReg(R0, 0x08008000)  returns 0x00 (0000ms, 0477ms total)
T1968 001:267 JLINK_WriteReg(R1, 0x00004000)  returns 0x00 (0000ms, 0477ms total)
T1968 001:267 JLINK_WriteReg(R2, 0x000000FF)  returns 0x00 (0000ms, 0477ms total)
T1968 001:267 JLINK_WriteReg(R3, 0x00000000)  returns 0x00 (0000ms, 0477ms total)
T1968 001:267 JLINK_WriteReg(R4, 0x00000000)  returns 0x00 (0000ms, 0477ms total)
T1968 001:267 JLINK_WriteReg(R5, 0x00000000)  returns 0x00 (0000ms, 0477ms total)
T1968 001:267 JLINK_WriteReg(R6, 0x00000000)  returns 0x00 (0000ms, 0477ms total)
T1968 001:267 JLINK_WriteReg(R7, 0x00000000)  returns 0x00 (0000ms, 0477ms total)
T1968 001:267 JLINK_WriteReg(R8, 0x00000000)  returns 0x00 (0000ms, 0477ms total)
T1968 001:267 JLINK_WriteReg(R9, 0x2000017C)  returns 0x00 (0000ms, 0477ms total)
T1968 001:267 JLINK_WriteReg(R10, 0x00000000)  returns 0x00 (0000ms, 0477ms total)
T1968 001:267 JLINK_WriteReg(R11, 0x00000000)  returns 0x00 (0000ms, 0477ms total)
T1968 001:267 JLINK_WriteReg(R12, 0x00000000)  returns 0x00 (0000ms, 0477ms total)
T1968 001:267 JLINK_WriteReg(R13, 0x20000800)  returns 0x00 (0000ms, 0477ms total)
T1968 001:267 JLINK_WriteReg(R14, 0x20000001)  returns 0x00 (0000ms, 0477ms total)
T1968 001:267 JLINK_WriteReg(R15, 0x20000020)  returns 0x00 (0000ms, 0477ms total)
T1968 001:267 JLINK_WriteReg(XPSR, 0x01000000)  returns 0x00 (0000ms, 0477ms total)
T1968 001:267 JLINK_WriteReg(MSP, 0x20000800)  returns 0x00 (0000ms, 0477ms total)
T1968 001:267 JLINK_WriteReg(PSP, 0x20000800)  returns 0x00 (0000ms, 0477ms total)
T1968 001:267 JLINK_WriteReg(CFBP, 0x00000000)  returns 0x00 (0000ms, 0477ms total)
T1968 001:267 JLINK_SetBPEx(Addr = 0x20000000, Type = 0xFFFFFFF2)  returns 0x00000006 (0000ms, 0477ms total)
T1968 001:267 JLINK_Go() -- CPU_WriteMem(4 bytes @ 0xE0002008) -- CPU_WriteMem(4 bytes @ 0xE000200C) -- CPU_WriteMem(4 bytes @ 0xE0002010) -- CPU_WriteMem(4 bytes @ 0xE0002014) -- CPU_WriteMem(4 bytes @ 0xE0002018) -- CPU_WriteMem(4 bytes @ 0xE000201C) (0010ms, 0487ms total)
T1968 001:277 JLINK_IsHalted() -- CPU_ReadMem(2 bytes @ 0x20000000)  returns TRUE (0005ms, 0492ms total)
T1968 001:282 JLINK_ReadReg(R15)  returns 0x20000000 (0000ms, 0487ms total)
T1968 001:282 JLINK_ClrBPEx(BPHandle = 0x00000006)  returns 0x00 (0000ms, 0487ms total)
T1968 001:282 JLINK_ReadReg(R0)  returns 0x00000001 (0000ms, 0487ms total)
T1968 001:282 JLINK_WriteReg(R0, 0x08008000)  returns 0x00 (0001ms, 0488ms total)
T1968 001:283 JLINK_WriteReg(R1, 0x00004000)  returns 0x00 (0000ms, 0488ms total)
T1968 001:283 JLINK_WriteReg(R2, 0x000000FF)  returns 0x00 (0000ms, 0488ms total)
T1968 001:283 JLINK_WriteReg(R3, 0x00000000)  returns 0x00 (0000ms, 0488ms total)
T1968 001:283 JLINK_WriteReg(R4, 0x00000000)  returns 0x00 (0000ms, 0488ms total)
T1968 001:283 JLINK_WriteReg(R5, 0x00000000)  returns 0x00 (0000ms, 0488ms total)
T1968 001:283 JLINK_WriteReg(R6, 0x00000000)  returns 0x00 (0000ms, 0488ms total)
T1968 001:283 JLINK_WriteReg(R7, 0x00000000)  returns 0x00 (0000ms, 0488ms total)
T1968 001:283 JLINK_WriteReg(R8, 0x00000000)  returns 0x00 (0000ms, 0488ms total)
T1968 001:283 JLINK_WriteReg(R9, 0x2000017C)  returns 0x00 (0000ms, 0488ms total)
T1968 001:283 JLINK_WriteReg(R10, 0x00000000)  returns 0x00 (0000ms, 0488ms total)
T1968 001:283 JLINK_WriteReg(R11, 0x00000000)  returns 0x00 (0000ms, 0488ms total)
T1968 001:283 JLINK_WriteReg(R12, 0x00000000)  returns 0x00 (0000ms, 0488ms total)
T1968 001:283 JLINK_WriteReg(R13, 0x20000800)  returns 0x00 (0000ms, 0488ms total)
T1968 001:283 JLINK_WriteReg(R14, 0x20000001)  returns 0x00 (0000ms, 0488ms total)
T1968 001:283 JLINK_WriteReg(R15, 0x200000BC)  returns 0x00 (0000ms, 0488ms total)
T1968 001:283 JLINK_WriteReg(XPSR, 0x01000000)  returns 0x00 (0000ms, 0488ms total)
T1968 001:283 JLINK_WriteReg(MSP, 0x20000800)  returns 0x00 (0000ms, 0488ms total)
T1968 001:283 JLINK_WriteReg(PSP, 0x20000800)  returns 0x00 (0000ms, 0488ms total)
T1968 001:283 JLINK_WriteReg(CFBP, 0x00000000)  returns 0x00 (0000ms, 0488ms total)
T1968 001:283 JLINK_SetBPEx(Addr = 0x20000000, Type = 0xFFFFFFF2)  returns 0x00000007 (0000ms, 0488ms total)
T1968 001:283 JLINK_Go() -- CPU_WriteMem(4 bytes @ 0xE0002008) -- CPU_WriteMem(4 bytes @ 0xE000200C) -- CPU_WriteMem(4 bytes @ 0xE0002010) -- CPU_WriteMem(4 bytes @ 0xE0002014) -- CPU_WriteMem(4 bytes @ 0xE0002018) -- CPU_WriteMem(4 bytes @ 0xE000201C) (0007ms, 0495ms total)
T1968 001:290 JLINK_IsHalted()  returns FALSE (0001ms, 0496ms total)
T1968 001:341 JLINK_IsHalted()  returns FALSE (0001ms, 0496ms total)
T1968 001:392 JLINK_IsHalted()  returns FALSE (0001ms, 0496ms total)
T1968 001:443 JLINK_IsHalted()  returns FALSE (0001ms, 0496ms total)
T1968 001:494 JLINK_IsHalted()  returns FALSE (0001ms, 0496ms total)
T1968 001:545 JLINK_IsHalted()  returns FALSE (0001ms, 0496ms total)
T1968 001:596 JLINK_IsHalted()  returns FALSE (0001ms, 0496ms total)
T1968 001:647 JLINK_IsHalted() -- CPU_ReadMem(2 bytes @ 0x20000000)  returns TRUE (0006ms, 0501ms total)
T1968 001:653 JLINK_ReadReg(R15)  returns 0x20000000 (0000ms, 0495ms total)
T1968 001:653 JLINK_ClrBPEx(BPHandle = 0x00000007)  returns 0x00 (0000ms, 0495ms total)
T1968 001:653 JLINK_ReadReg(R0)  returns 0x00000000 (0000ms, 0495ms total)
T1968 001:653 JLINK_WriteReg(R0, 0x00000001)  returns 0x00 (0000ms, 0495ms total)
T1968 001:653 JLINK_WriteReg(R1, 0x00004000)  returns 0x00 (0000ms, 0495ms total)
T1968 001:653 JLINK_WriteReg(R2, 0x000000FF)  returns 0x00 (0000ms, 0495ms total)
T1968 001:653 JLINK_WriteReg(R3, 0x00000000)  returns 0x00 (0000ms, 0495ms total)
T1968 001:653 JLINK_WriteReg(R4, 0x00000000)  returns 0x00 (0000ms, 0495ms total)
T1968 001:653 JLINK_WriteReg(R5, 0x00000000)  returns 0x00 (0000ms, 0495ms total)
T1968 001:653 JLINK_WriteReg(R6, 0x00000000)  returns 0x00 (0000ms, 0495ms total)
T1968 001:653 JLINK_WriteReg(R7, 0x00000000)  returns 0x00 (0000ms, 0495ms total)
T1968 001:653 JLINK_WriteReg(R8, 0x00000000)  returns 0x00 (0000ms, 0495ms total)
T1968 001:653 JLINK_WriteReg(R9, 0x2000017C)  returns 0x00 (0000ms, 0495ms total)
T1968 001:653 JLINK_WriteReg(R10, 0x00000000)  returns 0x00 (0000ms, 0495ms total)
T1968 001:653 JLINK_WriteReg(R11, 0x00000000)  returns 0x00 (0000ms, 0495ms total)
T1968 001:653 JLINK_WriteReg(R12, 0x00000000)  returns 0x00 (0000ms, 0495ms total)
T1968 001:653 JLINK_WriteReg(R13, 0x20000800)  returns 0x00 (0000ms, 0495ms total)
T1968 001:653 JLINK_WriteReg(R14, 0x20000001)  returns 0x00 (0000ms, 0495ms total)
T1968 001:653 JLINK_WriteReg(R15, 0x20000082)  returns 0x00 (0000ms, 0495ms total)
T1968 001:653 JLINK_WriteReg(XPSR, 0x01000000)  returns 0x00 (0000ms, 0495ms total)
T1968 001:653 JLINK_WriteReg(MSP, 0x20000800)  returns 0x00 (0000ms, 0495ms total)
T1968 001:653 JLINK_WriteReg(PSP, 0x20000800)  returns 0x00 (0000ms, 0495ms total)
T1968 001:653 JLINK_WriteReg(CFBP, 0x00000000)  returns 0x00 (0000ms, 0495ms total)
T1968 001:653 JLINK_SetBPEx(Addr = 0x20000000, Type = 0xFFFFFFF2)  returns 0x00000008 (0000ms, 0495ms total)
T1968 001:653 JLINK_Go() -- CPU_WriteMem(4 bytes @ 0xE0002008) -- CPU_WriteMem(4 bytes @ 0xE000200C) -- CPU_WriteMem(4 bytes @ 0xE0002010) -- CPU_WriteMem(4 bytes @ 0xE0002014) -- CPU_WriteMem(4 bytes @ 0xE0002018) -- CPU_WriteMem(4 bytes @ 0xE000201C) (0010ms, 0505ms total)
T1968 001:663 JLINK_IsHalted() -- CPU_ReadMem(2 bytes @ 0x20000000)  returns TRUE (0006ms, 0511ms total)
T1968 001:669 JLINK_ReadReg(R15)  returns 0x20000000 (0000ms, 0505ms total)
T1968 001:669 JLINK_ClrBPEx(BPHandle = 0x00000008)  returns 0x00 (0000ms, 0505ms total)
T1968 001:669 JLINK_ReadReg(R0)  returns 0x00000000 (0000ms, 0505ms total)
T1968 001:727 JLINK_WriteMem(0x20000000, 0x0180 Bytes, ...) -- Data:  00 BE 0A E0 0D 78 2D 06 68 40 08 24 40 00 00 D3 ... -- CPU_WriteMem(384 bytes @ 0x20000000)  returns 0x180 (0003ms, 0508ms total)
T1968 001:730 JLINK_WriteReg(R0, 0x08000000)  returns 0x00 (0000ms, 0508ms total)
T1968 001:730 JLINK_WriteReg(R1, 0x017D7840)  returns 0x00 (0000ms, 0508ms total)
T1968 001:730 JLINK_WriteReg(R2, 0x00000002)  returns 0x00 (0000ms, 0508ms total)
T1968 001:730 JLINK_WriteReg(R3, 0x00000000)  returns 0x00 (0000ms, 0508ms total)
T1968 001:730 JLINK_WriteReg(R4, 0x00000000)  returns 0x00 (0000ms, 0508ms total)
T1968 001:730 JLINK_WriteReg(R5, 0x00000000)  returns 0x00 (0000ms, 0508ms total)
T1968 001:730 JLINK_WriteReg(R6, 0x00000000)  returns 0x00 (0000ms, 0508ms total)
T1968 001:730 JLINK_WriteReg(R7, 0x00000000)  returns 0x00 (0000ms, 0508ms total)
T1968 001:730 JLINK_WriteReg(R8, 0x00000000)  returns 0x00 (0000ms, 0508ms total)
T1968 001:730 JLINK_WriteReg(R9, 0x2000017C)  returns 0x00 (0000ms, 0508ms total)
T1968 001:730 JLINK_WriteReg(R10, 0x00000000)  returns 0x00 (0000ms, 0508ms total)
T1968 001:730 JLINK_WriteReg(R11, 0x00000000)  returns 0x00 (0000ms, 0508ms total)
T1968 001:730 JLINK_WriteReg(R12, 0x00000000)  returns 0x00 (0000ms, 0508ms total)
T1968 001:730 JLINK_WriteReg(R13, 0x20000800)  returns 0x00 (0000ms, 0508ms total)
T1968 001:730 JLINK_WriteReg(R14, 0x20000001)  returns 0x00 (0000ms, 0508ms total)
T1968 001:730 JLINK_WriteReg(R15, 0x20000054)  returns 0x00 (0000ms, 0508ms total)
T1968 001:730 JLINK_WriteReg(XPSR, 0x01000000)  returns 0x00 (0000ms, 0508ms total)
T1968 001:730 JLINK_WriteReg(MSP, 0x20000800)  returns 0x00 (0000ms, 0508ms total)
T1968 001:730 JLINK_WriteReg(PSP, 0x20000800)  returns 0x00 (0000ms, 0508ms total)
T1968 001:730 JLINK_WriteReg(CFBP, 0x00000000)  returns 0x00 (0000ms, 0508ms total)
T1968 001:730 JLINK_SetBPEx(Addr = 0x20000000, Type = 0xFFFFFFF2) -- CPU_ReadMem(2 bytes @ 0x20000000)  returns 0x00000009 (0001ms, 0509ms total)
T1968 001:731 JLINK_Go() -- CPU_WriteMem(2 bytes @ 0x20000000) -- CPU_WriteMem(4 bytes @ 0xE0002008) -- CPU_WriteMem(4 bytes @ 0xE000200C) -- CPU_WriteMem(4 bytes @ 0xE0002010) -- CPU_WriteMem(4 bytes @ 0xE0002014) -- CPU_WriteMem(4 bytes @ 0xE0002018) -- CPU_WriteMem(4 bytes @ 0xE000201C) (0009ms, 0518ms total)
T1968 001:740 JLINK_IsHalted() -- CPU_ReadMem(2 bytes @ 0x20000000)  returns TRUE (0006ms, 0524ms total)
T1968 001:746 JLINK_ReadReg(R15)  returns 0x20000000 (0000ms, 0518ms total)
T1968 001:746 JLINK_ClrBPEx(BPHandle = 0x00000009)  returns 0x00 (0000ms, 0518ms total)
T1968 001:746 JLINK_ReadReg(R0)  returns 0x00000000 (0000ms, 0518ms total)
T1968 001:746 JLINK_WriteMem(0x20000180, 0x0400 Bytes, ...) -- Data:  C8 B2 00 20 A1 10 00 08 C1 06 00 08 C3 06 00 08 ... -- CPU_WriteMem(1024 bytes @ 0x20000180)  returns 0x400 (0007ms, 0525ms total)
T1968 001:753 JLINK_WriteReg(R0, 0x08000000)  returns 0x00 (0000ms, 0525ms total)
T1968 001:753 JLINK_WriteReg(R1, 0x00000400)  returns 0x00 (0000ms, 0525ms total)
T1968 001:753 JLINK_WriteReg(R2, 0x20000180)  returns 0x00 (0000ms, 0525ms total)
T1968 001:753 JLINK_WriteReg(R3, 0x00000000)  returns 0x00 (0000ms, 0525ms total)
T1968 001:753 JLINK_WriteReg(R4, 0x00000000)  returns 0x00 (0000ms, 0525ms total)
T1968 001:753 JLINK_WriteReg(R5, 0x00000000)  returns 0x00 (0000ms, 0525ms total)
T1968 001:753 JLINK_WriteReg(R6, 0x00000000)  returns 0x00 (0000ms, 0525ms total)
T1968 001:753 JLINK_WriteReg(R7, 0x00000000)  returns 0x00 (0000ms, 0525ms total)
T1968 001:753 JLINK_WriteReg(R8, 0x00000000)  returns 0x00 (0000ms, 0525ms total)
T1968 001:753 JLINK_WriteReg(R9, 0x2000017C)  returns 0x00 (0000ms, 0525ms total)
T1968 001:753 JLINK_WriteReg(R10, 0x00000000)  returns 0x00 (0000ms, 0525ms total)
T1968 001:753 JLINK_WriteReg(R11, 0x00000000)  returns 0x00 (0000ms, 0525ms total)
T1968 001:753 JLINK_WriteReg(R12, 0x00000000)  returns 0x00 (0000ms, 0525ms total)
T1968 001:753 JLINK_WriteReg(R13, 0x20000800)  returns 0x00 (0000ms, 0525ms total)
T1968 001:753 JLINK_WriteReg(R14, 0x20000001)  returns 0x00 (0000ms, 0525ms total)
T1968 001:753 JLINK_WriteReg(R15, 0x20000108)  returns 0x00 (0000ms, 0525ms total)
T1968 001:753 JLINK_WriteReg(XPSR, 0x01000000)  returns 0x00 (0000ms, 0525ms total)
T1968 001:753 JLINK_WriteReg(MSP, 0x20000800)  returns 0x00 (0000ms, 0525ms total)
T1968 001:753 JLINK_WriteReg(PSP, 0x20000800)  returns 0x00 (0000ms, 0525ms total)
T1968 001:753 JLINK_WriteReg(CFBP, 0x00000000)  returns 0x00 (0000ms, 0525ms total)
T1968 001:753 JLINK_SetBPEx(Addr = 0x20000000, Type = 0xFFFFFFF2)  returns 0x0000000A (0000ms, 0525ms total)
T1968 001:753 JLINK_Go() -- CPU_WriteMem(4 bytes @ 0xE0002008) -- CPU_WriteMem(4 bytes @ 0xE000200C) -- CPU_WriteMem(4 bytes @ 0xE0002010) -- CPU_WriteMem(4 bytes @ 0xE0002014) -- CPU_WriteMem(4 bytes @ 0xE0002018) -- CPU_WriteMem(4 bytes @ 0xE000201C) (0008ms, 0533ms total)
T1968 001:761 JLINK_IsHalted()  returns FALSE (0001ms, 0534ms total)
T1968 001:812 JLINK_IsHalted() -- CPU_ReadMem(2 bytes @ 0x20000000)  returns TRUE (0006ms, 0539ms total)
T1968 001:818 JLINK_ReadReg(R15)  returns 0x20000000 (0000ms, 0533ms total)
T1968 001:818 JLINK_ClrBPEx(BPHandle = 0x0000000A)  returns 0x00 (0000ms, 0533ms total)
T1968 001:818 JLINK_ReadReg(R0)  returns 0x00000000 (0000ms, 0533ms total)
T1968 001:819 JLINK_WriteMem(0x20000180, 0x0400 Bytes, ...) -- Data:  00 E0 00 BF 00 BF 10 BD 00 10 02 40 00 14 02 40 ... -- CPU_WriteMem(1024 bytes @ 0x20000180)  returns 0x400 (0006ms, 0539ms total)
T1968 001:825 JLINK_WriteReg(R0, 0x08000400)  returns 0x00 (0000ms, 0539ms total)
T1968 001:825 JLINK_WriteReg(R1, 0x00000400)  returns 0x00 (0000ms, 0539ms total)
T1968 001:825 JLINK_WriteReg(R2, 0x20000180)  returns 0x00 (0000ms, 0539ms total)
T1968 001:825 JLINK_WriteReg(R3, 0x00000000)  returns 0x00 (0000ms, 0539ms total)
T1968 001:825 JLINK_WriteReg(R4, 0x00000000)  returns 0x00 (0000ms, 0539ms total)
T1968 001:825 JLINK_WriteReg(R5, 0x00000000)  returns 0x00 (0000ms, 0539ms total)
T1968 001:825 JLINK_WriteReg(R6, 0x00000000)  returns 0x00 (0000ms, 0539ms total)
T1968 001:825 JLINK_WriteReg(R7, 0x00000000)  returns 0x00 (0000ms, 0539ms total)
T1968 001:825 JLINK_WriteReg(R8, 0x00000000)  returns 0x00 (0000ms, 0539ms total)
T1968 001:825 JLINK_WriteReg(R9, 0x2000017C)  returns 0x00 (0000ms, 0539ms total)
T1968 001:825 JLINK_WriteReg(R10, 0x00000000)  returns 0x00 (0000ms, 0539ms total)
T1968 001:825 JLINK_WriteReg(R11, 0x00000000)  returns 0x00 (0000ms, 0539ms total)
T1968 001:825 JLINK_WriteReg(R12, 0x00000000)  returns 0x00 (0000ms, 0539ms total)
T1968 001:825 JLINK_WriteReg(R13, 0x20000800)  returns 0x00 (0000ms, 0539ms total)
T1968 001:825 JLINK_WriteReg(R14, 0x20000001)  returns 0x00 (0000ms, 0539ms total)
T1968 001:825 JLINK_WriteReg(R15, 0x20000108)  returns 0x00 (0000ms, 0539ms total)
T1968 001:825 JLINK_WriteReg(XPSR, 0x01000000)  returns 0x00 (0001ms, 0540ms total)
T1968 001:826 JLINK_WriteReg(MSP, 0x20000800)  returns 0x00 (0000ms, 0540ms total)
T1968 001:826 JLINK_WriteReg(PSP, 0x20000800)  returns 0x00 (0000ms, 0540ms total)
T1968 001:826 JLINK_WriteReg(CFBP, 0x00000000)  returns 0x00 (0000ms, 0540ms total)
T1968 001:826 JLINK_SetBPEx(Addr = 0x20000000, Type = 0xFFFFFFF2)  returns 0x0000000B (0000ms, 0540ms total)
T1968 001:826 JLINK_Go() -- CPU_WriteMem(4 bytes @ 0xE0002008) -- CPU_WriteMem(4 bytes @ 0xE000200C) -- CPU_WriteMem(4 bytes @ 0xE0002010) -- CPU_WriteMem(4 bytes @ 0xE0002014) -- CPU_WriteMem(4 bytes @ 0xE0002018) -- CPU_WriteMem(4 bytes @ 0xE000201C) (0007ms, 0547ms total)
T1968 001:833 JLINK_IsHalted()  returns FALSE (0001ms, 0548ms total)
T1968 001:884 JLINK_IsHalted() -- CPU_ReadMem(2 bytes @ 0x20000000)  returns TRUE (0006ms, 0553ms total)
T1968 001:890 JLINK_ReadReg(R15)  returns 0x20000000 (0000ms, 0547ms total)
T1968 001:890 JLINK_ClrBPEx(BPHandle = 0x0000000B)  returns 0x00 (0000ms, 0547ms total)
T1968 001:890 JLINK_ReadReg(R0)  returns 0x00000000 (0000ms, 0547ms total)
T1968 001:890 JLINK_WriteMem(0x20000180, 0x0400 Bytes, ...) -- Data:  06 E0 0F 4A 12 1D 12 68 82 43 0D 4B 1B 1D 1A 60 ... -- CPU_WriteMem(1024 bytes @ 0x20000180)  returns 0x400 (0007ms, 0554ms total)
T1968 001:897 JLINK_WriteReg(R0, 0x08000800)  returns 0x00 (0000ms, 0554ms total)
T1968 001:897 JLINK_WriteReg(R1, 0x00000400)  returns 0x00 (0000ms, 0554ms total)
T1968 001:897 JLINK_WriteReg(R2, 0x20000180)  returns 0x00 (0000ms, 0554ms total)
T1968 001:897 JLINK_WriteReg(R3, 0x00000000)  returns 0x00 (0000ms, 0554ms total)
T1968 001:897 JLINK_WriteReg(R4, 0x00000000)  returns 0x00 (0000ms, 0554ms total)
T1968 001:897 JLINK_WriteReg(R5, 0x00000000)  returns 0x00 (0000ms, 0554ms total)
T1968 001:897 JLINK_WriteReg(R6, 0x00000000)  returns 0x00 (0000ms, 0554ms total)
T1968 001:897 JLINK_WriteReg(R7, 0x00000000)  returns 0x00 (0000ms, 0554ms total)
T1968 001:897 JLINK_WriteReg(R8, 0x00000000)  returns 0x00 (0000ms, 0554ms total)
T1968 001:897 JLINK_WriteReg(R9, 0x2000017C)  returns 0x00 (0000ms, 0554ms total)
T1968 001:897 JLINK_WriteReg(R10, 0x00000000)  returns 0x00 (0000ms, 0554ms total)
T1968 001:897 JLINK_WriteReg(R11, 0x00000000)  returns 0x00 (0000ms, 0554ms total)
T1968 001:897 JLINK_WriteReg(R12, 0x00000000)  returns 0x00 (0000ms, 0554ms total)
T1968 001:897 JLINK_WriteReg(R13, 0x20000800)  returns 0x00 (0000ms, 0554ms total)
T1968 001:897 JLINK_WriteReg(R14, 0x20000001)  returns 0x00 (0000ms, 0554ms total)
T1968 001:897 JLINK_WriteReg(R15, 0x20000108)  returns 0x00 (0000ms, 0554ms total)
T1968 001:897 JLINK_WriteReg(XPSR, 0x01000000)  returns 0x00 (0000ms, 0554ms total)
T1968 001:897 JLINK_WriteReg(MSP, 0x20000800)  returns 0x00 (0000ms, 0554ms total)
T1968 001:897 JLINK_WriteReg(PSP, 0x20000800)  returns 0x00 (0000ms, 0554ms total)
T1968 001:897 JLINK_WriteReg(CFBP, 0x00000000)  returns 0x00 (0000ms, 0554ms total)
T1968 001:897 JLINK_SetBPEx(Addr = 0x20000000, Type = 0xFFFFFFF2)  returns 0x0000000C (0000ms, 0554ms total)
T1968 001:897 JLINK_Go() -- CPU_WriteMem(4 bytes @ 0xE0002008) -- CPU_WriteMem(4 bytes @ 0xE000200C) -- CPU_WriteMem(4 bytes @ 0xE0002010) -- CPU_WriteMem(4 bytes @ 0xE0002014) -- CPU_WriteMem(4 bytes @ 0xE0002018) -- CPU_WriteMem(4 bytes @ 0xE000201C) (0008ms, 0562ms total)
T1968 001:905 JLINK_IsHalted()  returns FALSE (0001ms, 0563ms total)
T1968 001:956 JLINK_IsHalted() -- CPU_ReadMem(2 bytes @ 0x20000000)  returns TRUE (0006ms, 0568ms total)
T1968 001:962 JLINK_ReadReg(R15)  returns 0x20000000 (0000ms, 0562ms total)
T1968 001:962 JLINK_ClrBPEx(BPHandle = 0x0000000C)  returns 0x00 (0000ms, 0562ms total)
T1968 001:962 JLINK_ReadReg(R0)  returns 0x00000000 (0000ms, 0562ms total)
T1968 001:962 JLINK_WriteMem(0x20000180, 0x0400 Bytes, ...) -- Data:  00 20 A1 4B 08 33 18 68 20 F0 78 40 42 EA 01 03 ... -- CPU_WriteMem(1024 bytes @ 0x20000180)  returns 0x400 (0007ms, 0569ms total)
T1968 001:969 JLINK_WriteReg(R0, 0x08000C00)  returns 0x00 (0000ms, 0569ms total)
T1968 001:969 JLINK_WriteReg(R1, 0x00000400)  returns 0x00 (0000ms, 0569ms total)
T1968 001:969 JLINK_WriteReg(R2, 0x20000180)  returns 0x00 (0000ms, 0569ms total)
T1968 001:969 JLINK_WriteReg(R3, 0x00000000)  returns 0x00 (0000ms, 0569ms total)
T1968 001:969 JLINK_WriteReg(R4, 0x00000000)  returns 0x00 (0000ms, 0569ms total)
T1968 001:969 JLINK_WriteReg(R5, 0x00000000)  returns 0x00 (0000ms, 0569ms total)
T1968 001:969 JLINK_WriteReg(R6, 0x00000000)  returns 0x00 (0000ms, 0569ms total)
T1968 001:969 JLINK_WriteReg(R7, 0x00000000)  returns 0x00 (0000ms, 0569ms total)
T1968 001:969 JLINK_WriteReg(R8, 0x00000000)  returns 0x00 (0000ms, 0569ms total)
T1968 001:969 JLINK_WriteReg(R9, 0x2000017C)  returns 0x00 (0000ms, 0569ms total)
T1968 001:969 JLINK_WriteReg(R10, 0x00000000)  returns 0x00 (0000ms, 0569ms total)
T1968 001:969 JLINK_WriteReg(R11, 0x00000000)  returns 0x00 (0000ms, 0569ms total)
T1968 001:969 JLINK_WriteReg(R12, 0x00000000)  returns 0x00 (0000ms, 0569ms total)
T1968 001:969 JLINK_WriteReg(R13, 0x20000800)  returns 0x00 (0000ms, 0569ms total)
T1968 001:969 JLINK_WriteReg(R14, 0x20000001)  returns 0x00 (0000ms, 0569ms total)
T1968 001:969 JLINK_WriteReg(R15, 0x20000108)  returns 0x00 (0000ms, 0569ms total)
T1968 001:969 JLINK_WriteReg(XPSR, 0x01000000)  returns 0x00 (0000ms, 0569ms total)
T1968 001:969 JLINK_WriteReg(MSP, 0x20000800)  returns 0x00 (0000ms, 0569ms total)
T1968 001:969 JLINK_WriteReg(PSP, 0x20000800)  returns 0x00 (0000ms, 0569ms total)
T1968 001:969 JLINK_WriteReg(CFBP, 0x00000000)  returns 0x00 (0000ms, 0569ms total)
T1968 001:969 JLINK_SetBPEx(Addr = 0x20000000, Type = 0xFFFFFFF2)  returns 0x0000000D (0000ms, 0569ms total)
T1968 001:969 JLINK_Go() -- CPU_WriteMem(4 bytes @ 0xE0002008) -- CPU_WriteMem(4 bytes @ 0xE000200C) -- CPU_WriteMem(4 bytes @ 0xE0002010) -- CPU_WriteMem(4 bytes @ 0xE0002014) -- CPU_WriteMem(4 bytes @ 0xE0002018) -- CPU_WriteMem(4 bytes @ 0xE000201C) (0009ms, 0578ms total)
T1968 001:978 JLINK_IsHalted()  returns FALSE (0001ms, 0579ms total)
T1968 002:029 JLINK_IsHalted() -- CPU_ReadMem(2 bytes @ 0x20000000)  returns TRUE (0007ms, 0585ms total)
T1968 002:036 JLINK_ReadReg(R15)  returns 0x20000000 (0000ms, 0578ms total)
T1968 002:036 JLINK_ClrBPEx(BPHandle = 0x0000000D)  returns 0x00 (0000ms, 0578ms total)
T1968 002:036 JLINK_ReadReg(R0)  returns 0x00000000 (0000ms, 0578ms total)
T1968 002:036 JLINK_WriteMem(0x20000180, 0x0400 Bytes, ...) -- Data:  00 E0 00 20 70 47 02 49 0A 39 08 70 70 47 00 00 ... -- CPU_WriteMem(1024 bytes @ 0x20000180)  returns 0x400 (0006ms, 0584ms total)
T1968 002:042 JLINK_WriteReg(R0, 0x08001000)  returns 0x00 (0000ms, 0584ms total)
T1968 002:042 JLINK_WriteReg(R1, 0x00000400)  returns 0x00 (0000ms, 0584ms total)
T1968 002:042 JLINK_WriteReg(R2, 0x20000180)  returns 0x00 (0000ms, 0584ms total)
T1968 002:042 JLINK_WriteReg(R3, 0x00000000)  returns 0x00 (0000ms, 0584ms total)
T1968 002:042 JLINK_WriteReg(R4, 0x00000000)  returns 0x00 (0000ms, 0584ms total)
T1968 002:042 JLINK_WriteReg(R5, 0x00000000)  returns 0x00 (0000ms, 0584ms total)
T1968 002:042 JLINK_WriteReg(R6, 0x00000000)  returns 0x00 (0000ms, 0584ms total)
T1968 002:042 JLINK_WriteReg(R7, 0x00000000)  returns 0x00 (0000ms, 0584ms total)
T1968 002:043 JLINK_WriteReg(R8, 0x00000000)  returns 0x00 (0000ms, 0585ms total)
T1968 002:043 JLINK_WriteReg(R9, 0x2000017C)  returns 0x00 (0000ms, 0585ms total)
T1968 002:043 JLINK_WriteReg(R10, 0x00000000)  returns 0x00 (0000ms, 0585ms total)
T1968 002:043 JLINK_WriteReg(R11, 0x00000000)  returns 0x00 (0000ms, 0585ms total)
T1968 002:043 JLINK_WriteReg(R12, 0x00000000)  returns 0x00 (0000ms, 0585ms total)
T1968 002:043 JLINK_WriteReg(R13, 0x20000800)  returns 0x00 (0000ms, 0585ms total)
T1968 002:043 JLINK_WriteReg(R14, 0x20000001)  returns 0x00 (0000ms, 0585ms total)
T1968 002:043 JLINK_WriteReg(R15, 0x20000108)  returns 0x00 (0000ms, 0585ms total)
T1968 002:043 JLINK_WriteReg(XPSR, 0x01000000)  returns 0x00 (0000ms, 0585ms total)
T1968 002:043 JLINK_WriteReg(MSP, 0x20000800)  returns 0x00 (0000ms, 0585ms total)
T1968 002:043 JLINK_WriteReg(PSP, 0x20000800)  returns 0x00 (0000ms, 0585ms total)
T1968 002:043 JLINK_WriteReg(CFBP, 0x00000000)  returns 0x00 (0000ms, 0585ms total)
T1968 002:043 JLINK_SetBPEx(Addr = 0x20000000, Type = 0xFFFFFFF2)  returns 0x0000000E (0000ms, 0585ms total)
T1968 002:043 JLINK_Go() -- CPU_WriteMem(4 bytes @ 0xE0002008) -- CPU_WriteMem(4 bytes @ 0xE000200C) -- CPU_WriteMem(4 bytes @ 0xE0002010) -- CPU_WriteMem(4 bytes @ 0xE0002014) -- CPU_WriteMem(4 bytes @ 0xE0002018) -- CPU_WriteMem(4 bytes @ 0xE000201C) (0008ms, 0593ms total)
T1968 002:051 JLINK_IsHalted()  returns FALSE (0001ms, 0594ms total)
T1968 002:102 JLINK_IsHalted() -- CPU_ReadMem(2 bytes @ 0x20000000)  returns TRUE (0006ms, 0599ms total)
T1968 002:108 JLINK_ReadReg(R15)  returns 0x20000000 (0000ms, 0593ms total)
T1968 002:108 JLINK_ClrBPEx(BPHandle = 0x0000000E)  returns 0x00 (0000ms, 0593ms total)
T1968 002:108 JLINK_ReadReg(R0)  returns 0x00000000 (0000ms, 0593ms total)
T1968 002:108 JLINK_WriteMem(0x20000180, 0x0400 Bytes, ...) -- Data:  28 46 2E 60 05 1F 28 46 C5 F8 00 C0 4F F0 11 36 ... -- CPU_WriteMem(1024 bytes @ 0x20000180)  returns 0x400 (0007ms, 0600ms total)
T1968 002:115 JLINK_WriteReg(R0, 0x08001400)  returns 0x00 (0000ms, 0600ms total)
T1968 002:115 JLINK_WriteReg(R1, 0x00000400)  returns 0x00 (0000ms, 0600ms total)
T1968 002:115 JLINK_WriteReg(R2, 0x20000180)  returns 0x00 (0000ms, 0600ms total)
T1968 002:115 JLINK_WriteReg(R3, 0x00000000)  returns 0x00 (0000ms, 0600ms total)
T1968 002:115 JLINK_WriteReg(R4, 0x00000000)  returns 0x00 (0000ms, 0600ms total)
T1968 002:115 JLINK_WriteReg(R5, 0x00000000)  returns 0x00 (0000ms, 0600ms total)
T1968 002:115 JLINK_WriteReg(R6, 0x00000000)  returns 0x00 (0000ms, 0600ms total)
T1968 002:115 JLINK_WriteReg(R7, 0x00000000)  returns 0x00 (0000ms, 0600ms total)
T1968 002:115 JLINK_WriteReg(R8, 0x00000000)  returns 0x00 (0000ms, 0600ms total)
T1968 002:115 JLINK_WriteReg(R9, 0x2000017C)  returns 0x00 (0000ms, 0600ms total)
T1968 002:115 JLINK_WriteReg(R10, 0x00000000)  returns 0x00 (0000ms, 0600ms total)
T1968 002:115 JLINK_WriteReg(R11, 0x00000000)  returns 0x00 (0000ms, 0600ms total)
T1968 002:115 JLINK_WriteReg(R12, 0x00000000)  returns 0x00 (0000ms, 0600ms total)
T1968 002:115 JLINK_WriteReg(R13, 0x20000800)  returns 0x00 (0000ms, 0600ms total)
T1968 002:115 JLINK_WriteReg(R14, 0x20000001)  returns 0x00 (0000ms, 0600ms total)
T1968 002:115 JLINK_WriteReg(R15, 0x20000108)  returns 0x00 (0000ms, 0600ms total)
T1968 002:115 JLINK_WriteReg(XPSR, 0x01000000)  returns 0x00 (0000ms, 0600ms total)
T1968 002:115 JLINK_WriteReg(MSP, 0x20000800)  returns 0x00 (0000ms, 0600ms total)
T1968 002:115 JLINK_WriteReg(PSP, 0x20000800)  returns 0x00 (0000ms, 0600ms total)
T1968 002:115 JLINK_WriteReg(CFBP, 0x00000000)  returns 0x00 (0000ms, 0600ms total)
T1968 002:115 JLINK_SetBPEx(Addr = 0x20000000, Type = 0xFFFFFFF2)  returns 0x0000000F (0000ms, 0600ms total)
T1968 002:115 JLINK_Go() -- CPU_WriteMem(4 bytes @ 0xE0002008) -- CPU_WriteMem(4 bytes @ 0xE000200C) -- CPU_WriteMem(4 bytes @ 0xE0002010) -- CPU_WriteMem(4 bytes @ 0xE0002014) -- CPU_WriteMem(4 bytes @ 0xE0002018) -- CPU_WriteMem(4 bytes @ 0xE000201C) (0009ms, 0609ms total)
T1968 002:124 JLINK_IsHalted()  returns FALSE (0001ms, 0610ms total)
T1968 002:175 JLINK_IsHalted() -- CPU_ReadMem(2 bytes @ 0x20000000)  returns TRUE (0006ms, 0615ms total)
T1968 002:181 JLINK_ReadReg(R15)  returns 0x20000000 (0000ms, 0609ms total)
T1968 002:181 JLINK_ClrBPEx(BPHandle = 0x0000000F)  returns 0x00 (0000ms, 0609ms total)
T1968 002:181 JLINK_ReadReg(R0)  returns 0x00000000 (0000ms, 0609ms total)
T1968 002:181 JLINK_WriteMem(0x20000180, 0x0400 Bytes, ...) -- Data:  30 60 01 20 88 F8 00 00 58 46 81 E7 00 BF 0A F1 ... -- CPU_WriteMem(1024 bytes @ 0x20000180)  returns 0x400 (0006ms, 0615ms total)
T1968 002:187 JLINK_WriteReg(R0, 0x08001800)  returns 0x00 (0000ms, 0615ms total)
T1968 002:187 JLINK_WriteReg(R1, 0x00000400)  returns 0x00 (0000ms, 0615ms total)
T1968 002:188 JLINK_WriteReg(R2, 0x20000180)  returns 0x00 (0000ms, 0616ms total)
T1968 002:188 JLINK_WriteReg(R3, 0x00000000)  returns 0x00 (0000ms, 0616ms total)
T1968 002:188 JLINK_WriteReg(R4, 0x00000000)  returns 0x00 (0000ms, 0616ms total)
T1968 002:188 JLINK_WriteReg(R5, 0x00000000)  returns 0x00 (0000ms, 0616ms total)
T1968 002:188 JLINK_WriteReg(R6, 0x00000000)  returns 0x00 (0000ms, 0616ms total)
T1968 002:188 JLINK_WriteReg(R7, 0x00000000)  returns 0x00 (0000ms, 0616ms total)
T1968 002:188 JLINK_WriteReg(R8, 0x00000000)  returns 0x00 (0000ms, 0616ms total)
T1968 002:188 JLINK_WriteReg(R9, 0x2000017C)  returns 0x00 (0000ms, 0616ms total)
T1968 002:188 JLINK_WriteReg(R10, 0x00000000)  returns 0x00 (0000ms, 0616ms total)
T1968 002:188 JLINK_WriteReg(R11, 0x00000000)  returns 0x00 (0000ms, 0616ms total)
T1968 002:188 JLINK_WriteReg(R12, 0x00000000)  returns 0x00 (0000ms, 0616ms total)
T1968 002:188 JLINK_WriteReg(R13, 0x20000800)  returns 0x00 (0000ms, 0616ms total)
